/I1/IN (VY=-0.1) X,/I1/IN (VY=-0.1) Y,/I1/IN (VY=-0.08947368) X,/I1/IN (VY=-0.08947368) Y,/I1/IN (VY=-0.06842105) X,/I1/IN (VY=-0.06842105) Y,/I1/IN (VY=-0.05789474) X,/I1/IN (VY=-0.05789474) Y,/I1/IN (VY=-0.04736842) X,/I1/IN (VY=-0.04736842) Y,/I1/IN (VY=-0.03684211) X,/I1/IN (VY=-0.03684211) Y,/I1/IN (VY=-0.02631579) X,/I1/IN (VY=-0.02631579) Y,/I1/IN (VY=-0.01578947) X,/I1/IN (VY=-0.01578947) Y,/I1/IN (VY=-0.005263158) X,/I1/IN (VY=-0.005263158) Y,/I1/IN (VY=0.005263158) X,/I1/IN (VY=0.005263158) Y,/I1/IN (VY=0.01578947) X,/I1/IN (VY=0.01578947) Y,/I1/IN (VY=0.02631579) X,/I1/IN (VY=0.02631579) Y,/I1/IN (VY=0.03684211) X,/I1/IN (VY=0.03684211) Y,/I1/IN (VY=0.04736842) X,/I1/IN (VY=0.04736842) Y,/I1/IN (VY=0.05789474) X,/I1/IN (VY=0.05789474) Y,/I1/IN (VY=0.06842105) X,/I1/IN (VY=0.06842105) Y,/I1/IN (VY=0.07894737) X,/I1/IN (VY=0.07894737) Y,/I1/IN (VY=0.08947368) X,/I1/IN (VY=0.08947368) Y,/I1/IN (VY=0.1) X,/I1/IN (VY=0.1) Y,/I1/IN (VY=-0.07894737) X,/I1/IN (VY=-0.07894737) Y
0,-3.183491017923351e-12,0,-2.744036208423876e-12,0,-2.008143377742475e-12,0,-1.817562062641828e-12,0,-1.824788617595153e-12,0,-2.086677541090895e-12,0,-2.652882820067831e-12,0,-3.51613369116017e-12,0,-4.696032377217154e-12,0,-6.260721553274513e-12,0,-8.328099667718634e-12,0,-1.10402636873176e-11,0,-1.453185133669542e-11,0,-1.891868405474199e-11,0,-2.418044598960753e-11,0,-3.00883578603441e-11,0,-3.623652753318738e-11,0,-4.217642886100351e-11,0,-4.756778693318023e-11,0,-2.336075271139789e-12
1e-06,-3.182650766032857e-12,1e-06,-2.743071837686314e-12,1e-06,-2.006885471159137e-12,1e-06,-1.816130458022817e-12,1e-06,-1.823163965061195e-12,1e-06,-2.084844240620747e-12,1e-06,-2.650839798182572e-12,1e-06,-3.513907658890022e-12,1e-06,-4.693667316889077e-12,1e-06,-6.258282693164832e-12,1e-06,-8.325672536002773e-12,1e-06,-1.103795566278421e-11,1e-06,-1.452978527532929e-11,1e-06,-1.891698415400019e-11,1e-06,-2.417920901928538e-11,1e-06,-3.008762036271123e-11,1e-06,-3.623625326614462e-11,1e-06,-4.217652796820227e-11,1e-06,-4.756815886667751e-11,1e-06,-2.334972371191821e-12
1.985520609582194e-06,-3.18003380472366e-12,1.98546395192058e-06,-2.740031051288172e-12,1.985346738017793e-06,-2.002811358681109e-12,1.985289322490151e-06,-1.811427771861341e-12,1.985234211966062e-06,-1.817752195980419e-12,1.985182067463645e-06,-2.078657248150579e-12,1.985133374945813e-06,-2.643867733754214e-12,1.985088579086902e-06,-3.506250439476453e-12,1.985047912352159e-06,-4.685486436564887e-12,1.985011173606227e-06,-6.249819583270978e-12,1.984977882021708e-06,-8.317244404201605e-12,1.984947294260824e-06,-1.102995833126749e-11,1.984918796535977e-06,-1.452266525504134e-11,1.984891999411216e-06,-1.891118388585729e-11,1.984866729751202e-06,-2.417506201739049e-11,1.984843025844346e-06,-3.008523812670056e-11,1.984821075018508e-06,-3.623548950875578e-11,1.984801133654835e-06,-4.217705396955818e-11,1.984783445296091e-06,-4.756962336116376e-11,1.985405427679972e-06,-2.331449072367953e-12
3.023469722240474e-06,-3.175647047452783e-12,3.023396480508696e-06,-2.73489634226719e-12,3.023244955035305e-06,-1.99582379487295e-12,3.023170731356241e-06,-1.803297195290603e-12,3.023099486763598e-06,-1.808322492623942e-12,3.023032075891623e-06,-2.067798879717565e-12,3.02296912709112e-06,-2.631556801812353e-12,3.022911215349496e-06,-3.492671482832925e-12,3.022858641316965e-06,-4.670934350455704e-12,3.022811145076096e-06,-6.234737108042005e-12,3.022768105099618e-06,-8.302213769146483e-12,3.022728560456931e-06,-1.101570407059923e-11,3.022691717676875e-06,-1.450999942572917e-11,3.022657073320824e-06,-1.890090434824474e-11,3.022624403582314e-06,-2.41677620243049e-11,3.022593757988294e-06,-3.008110559052295e-11,3.022565378752208e-06,-3.623424922975913e-11,3.022539597365357e-06,-4.217810845723815e-11,3.022516728723064e-06,-4.757234788328494e-11,3.023320825080432e-06,-2.325453923133262e-12
5.043218714047584e-06,-3.161154784025121e-12,5.099261537684929e-06,-2.717050744355967e-12,5.055208193940996e-06,-1.971246105647172e-12,4.868612776105787e-06,-1.777421927744863e-12,4.676263822242555e-06,-1.781710565852823e-12,4.463737678886341e-06,-2.041627191880551e-12,4.371307149660064e-06,-2.603952102176899e-12,4.59262586271282e-06,-3.455526617193298e-12,4.758156234643898e-06,-4.625418639155228e-12,4.750963535499418e-06,-6.187599355634053e-12,4.76043501131138e-06,-8.254772698057624e-12,4.78788409490014e-06,-1.096973412059096e-11,4.835222786621642e-06,-1.446772009959825e-11,4.847306426165639e-06,-1.886632056007366e-11,4.726587693140998e-06,-2.414534798032654e-11,4.598169629313421e-06,-3.006971035177568e-11,4.459832262945299e-06,-3.623130234544382e-11,4.308014603499972e-06,-4.218048888706721e-11,4.380041290356133e-06,-4.75787486773303e-11,5.099151619881352e-06,-2.304221837059862e-12
7.468743440754212e-06,-3.137767035217567e-12,7.49642980836788e-06,-2.688800387993956e-12,7.294653615131724e-06,-1.932550551247416e-12,6.959923385968775e-06,-1.734656245990289e-12,6.604543077745776e-06,-1.735709273905921e-12,6.053391680329669e-06,-1.998856822452926e-12,5.817431897954765e-06,-2.560058773537102e-12,6.337620210050779e-06,-3.392495203415896e-12,6.530078738638994e-06,-4.553951571947778e-12,6.513209129398755e-06,-6.113312591018091e-12,6.53634722271645e-06,-8.179443784465141e-12,6.602664124867338e-06,-1.089584364630344e-11,6.717217312694409e-06,-1.439850665085267e-11,6.810196783497056e-06,-1.880698978438942e-11,6.714462146861037e-06,-2.410310241849145e-11,6.384106333168518e-06,-3.004877245049654e-11,6.037551139164367e-06,-3.622579387065933e-11,5.667219016528297e-06,-4.218396015600513e-11,5.848930119500511e-06,-4.758896130451677e-11,7.431337781176983e-06,-2.270838401800775e-12
1.027354274330486e-05,-3.10931409501942e-12,1.02323358643596e-05,-2.65430271363844e-12,9.691642132052493e-06,-1.886327141664246e-12,9.137534671971598e-06,-1.683356881224589e-12,8.604449737432345e-06,-1.678977853413739e-12,7.870039169629582e-06,-1.93881571173301e-12,7.492530845310961e-06,-2.496479451595694e-12,8.140283767588339e-06,-3.31193007624086e-12,8.360609576977277e-06,-4.463329921185915e-12,8.338076190273458e-06,-6.018309482371639e-12,8.379556768674173e-06,-8.082409726057323e-12,8.496533337381325e-06,-1.079970184623981e-11,8.69870524780048e-06,-1.430715137246405e-11,8.911840533199183e-06,-1.87263442239924e-11,8.936273349006277e-06,-2.404126470336473e-11,8.541042052500085e-06,-3.001415469951421e-11,7.898640173162801e-06,-3.621569739691092e-11,7.231624336740403e-06,-4.218799881223674e-11,7.573726260913352e-06,-4.76032960191693e-11,1.005747802897868e-05,-2.229826594161046e-12
1.4112239591971e-05,-3.072745331477878e-12,1.373809262960982e-05,-2.612198385946802e-12,1.243047683719686e-05,-1.834349326659469e-12,1.152480077815689e-05,-1.626647557932517e-12,1.072539799443718e-05,-1.616665414200631e-12,9.783281609988959e-06,-1.87085208639283e-12,9.290290600260863e-06,-2.421413014909102e-12,9.998964152585459e-06,-3.222388243651731e-12,1.028052067810137e-05,-4.3612886669022e-12,1.032219478174445e-05,-5.90676067558299e-12,1.048881706812001e-05,-7.961952702463133e-12,1.081375415995723e-05,-1.067159447402993e-11,1.116192477231077e-05,-1.418290088806013e-11,1.156145480615286e-05,-1.861403153913556e-11,1.175757097074298e-05,-2.395234150302374e-11,1.141578957062731e-05,-2.995902316053062e-11,1.041026611930797e-05,-3.619694494563163e-11,9.270342802404468e-06,-4.219176971582217e-11,9.898640654888168e-06,-4.762319501522861e-11,1.318343492805463e-05,-2.182617106092029e-12
1.898960339955136e-05,-3.028672356301253e-12,1.837304389370906e-05,-2.559314215324242e-12,1.585358322596596e-05,-1.772454781158819e-12,1.43609625779277e-05,-1.561964554135654e-12,1.314248788857347e-05,-1.547575150979179e-12,1.186300095860532e-05,-1.797342634272793e-12,1.121184799330969e-05,-2.340141145466041e-12,1.201347879504913e-05,-3.125237714784128e-12,1.236650770145076e-05,-4.250430283791319e-12,1.250223884916039e-05,-5.783684721285551e-12,1.28551483333951e-05,-7.825781141454458e-12,1.349723900299561e-05,-1.052162664504364e-11,1.427836470610027e-05,-1.402338000206168e-11,1.496393483571265e-05,-1.846664450753259e-11,1.539196604682499e-05,-2.383361260662258e-11,1.521945685028764e-05,-2.988086218511037e-11,1.365789239806173e-05,-3.616825204240827e-11,1.193128481868208e-05,-4.219409387741175e-11,1.290330178412403e-05,-4.764798227985258e-11,1.730353712201215e-05,-2.123465304323961e-12
2.559038343100522e-05,-2.969164680702593e-12,2.415288177534123e-05,-2.49384337369568e-12,2.008906995695113e-05,-1.697686771952665e-12,1.802070248257265e-05,-1.481170899316907e-12,1.619716473860544e-05,-1.463321852781708e-12,1.434614892974236e-05,-1.712271150416951e-12,1.343498110392731e-05,-2.248251625904362e-12,1.4380033196217e-05,-3.014010797687338e-12,1.483902221751882e-05,-4.122232974156651e-12,1.510125273103351e-05,-5.640140816871622e-12,1.572268829897902e-05,-7.663866285551177e-12,1.684834019828242e-05,-1.033718077225898e-11,1.839999159178878e-05,-1.381464210755071e-11,1.951313271189388e-05,-1.82707720427754e-11,2.031268188718452e-05,-2.36731370082207e-11,2.036892062306717e-05,-2.977435588504346e-11,1.838793749313155e-05,-3.612468272018916e-11,1.561218582104431e-05,-4.219525752326104e-11,1.723039636772022e-05,-4.76831256609806e-11,2.227637180689798e-05,-2.053111285035411e-12
3.559038343100522e-05,-2.877291917525387e-12,3.364618956727879e-05,-2.384359149584167e-12,2.585099645512919e-05,-1.595432939346236e-12,2.260356374364245e-05,-1.380521471059429e-12,2.000342958356688e-05,-1.359936030818876e-12,1.761388998233521e-05,-1.602967606863475e-12,1.626200794385059e-05,-2.134277932174549e-12,1.74750656985272e-05,-2.871658727160484e-12,1.808492780435363e-05,-3.957108612929724e-12,1.85030603010994e-05,-5.455383374808413e-12,1.943579010353312e-05,-7.456938553077129e-12,2.111532630211422e-05,-1.010420603974686e-11,2.35467233236658e-05,-1.355470796782253e-11,2.580246495400156e-05,-1.799998609983078e-11,2.809348970787642e-05,-2.341949585750145e-11,2.876007997864658e-05,-2.960186166888259e-11,2.610224694703888e-05,-3.605492808384806e-11,2.124179534825299e-05,-4.219732749969191e-11,2.428194716075229e-05,-4.774254632007747e-11,2.968861267127671e-05,-1.946865077824839e-12
4.559038343100522e-05,-2.783836144065695e-12,4.364618956727879e-05,-2.26683292809585e-12,3.585099645512919e-05,-1.414873298869223e-12,2.972186735813907e-05,-1.222361559270384e-12,2.523950384380927e-05,-1.217095612026831e-12,2.170458232994862e-05,-1.466849685279157e-12,1.986383004232502e-05,-1.990514527577711e-12,2.134798887121188e-05,-2.694441986226256e-12,2.217011255433791e-05,-3.74981355060711e-12,2.283239555726454e-05,-5.220412258161704e-12,2.429455352336806e-05,-7.185478262709056e-12,2.697966392267144e-05,-9.781829412566121e-12,3.116502761712964e-05,-1.316565797519943e-11,3.580246495400156e-05,-1.756352390237338e-11,3.809348970787642e-05,-2.308978708812484e-11,3.876007997864658e-05,-2.939554351893986e-11,3.610224694703888e-05,-3.59663486479791e-11,3.031895296423945e-05,-4.220447011036821e-11,3.428194716075229e-05,-4.783211439504456e-11,3.968861267127671e-05,-1.800843690883519e-12
5.559038343100522e-05,-2.689113616926883e-12,5.364618956727879e-05,-2.1474641981192e-12,4.585099645512919e-05,-1.231127483972779e-12,3.972186735813908e-05,-9.966873732014268e-13,3.480400077970081e-05,-9.526556380117576e-13,2.775579593848009e-05,-1.26399685993866e-12,2.478885983156992e-05,-1.793105729027862e-12,2.695278143595238e-05,-2.436000582212405e-12,2.829277060109451e-05,-3.436108173608199e-12,2.948196059184624e-05,-4.855416670198789e-12,3.223181543882575e-05,-6.735782919102672e-12,3.697966392267144e-05,-9.222494036302526e-12,4.116502761712964e-05,-1.26456043046177e-11,4.580246495400156e-05,-1.711895279936171e-11,4.809348970787642e-05,-2.275507178953306e-11,4.876007997864658e-05,-2.91874702293711e-11,4.610224694703887e-05,-3.587872696299025e-11,4.031895296423945e-05,-4.221738343091161e-11,4.428194716075229e-05,-4.792703168386127e-11,4.968861267127671e-05,-1.652334562909596e-12
6.559038343100522e-05,-2.59318841493448e-12,6.364618956727879e-05,-2.026347358750777e-12,5.585099645512919e-05,-1.044537869980751e-12,4.972186735813907e-05,-7.675609216031839e-13,4.480400077970081e-05,-6.721010169282539e-13,3.77557959384801e-05,-9.245724073867998e-13,3.317115688626035e-05,-1.453112753632247e-12,3.695278143595238e-05,-1.968111524577154e-12,3.829277060109451e-05,-2.91553706447731e-12,3.948196059184624e-05,-4.297054387162404e-12,4.223181543882575e-05,-6.15868077399906e-12,4.697966392267144e-05,-8.65201820768015e-12,5.116502761712964e-05,-1.211585082924811e-11,5.580246495400156e-05,-1.666699638025448e-11,5.809348970787642e-05,-2.241581580512557e-11,5.876007997864658e-05,-2.897781554916056e-11,5.610224694703887e-05,-3.579186658768109e-11,5.031895296423945e-05,-4.223514445220884e-11,5.428194716075229e-05,-4.802682230918318e-11,5.968861267127671e-05,-1.50152176237539e-12
7.559038343100522e-05,-2.496082045608139e-12,7.364618956727879e-05,-1.903499897959133e-12,6.585099645512919e-05,-8.551616196271538e-13,5.972186735813907e-05,-5.351708791351612e-13,5.480400077970081e-05,-3.877958289856458e-13,4.77557959384801e-05,-5.80652250537454e-13,4.317115688626035e-05,-1.042080463076834e-12,4.695278143595238e-05,-1.492595940156855e-12,4.829277060109451e-05,-2.385987982332582e-12,4.948196059184624e-05,-3.728589422514413e-12,5.223181543882575e-05,-5.571068983315533e-12,5.697966392267144e-05,-8.071576378292755e-12,6.116502761712964e-05,-1.157742184973955e-11,6.580246495400156e-05,-1.620848096646157e-11,6.809348970787642e-05,-2.207262503335503e-11,6.876007997864658e-05,-2.87669550377823e-11,6.610224694703888e-05,-3.570592064687557e-11,6.031895296423945e-05,-4.225765033455176e-11,6.428194716075228e-05,-4.813130605798974e-11,6.968861267127671e-05,-1.348429061858167e-12
8.559038343100522e-05,-2.397837834673963e-12,8.364618956727879e-05,-1.778962274116309e-12,7.585099645512918e-05,-6.630226098864811e-13,6.972186735813908e-05,-2.995594159252537e-13,6.480400077970081e-05,-9.986211009452968e-14,5.775579593848009e-05,-2.325842125588101e-13,5.317115688626035e-05,-6.260952120896834e-13,5.695278143595238e-05,-1.01011621871231e-12,5.829277060109451e-05,-1.848219182192873e-12,5.948196059184623e-05,-3.150873733825268e-12,6.223181543882575e-05,-4.973852457386547e-12,6.697966392267145e-05,-7.482086479672833e-12,7.116502761712964e-05,-1.103120966918095e-11,7.580246495400156e-05,-1.5744184055833e-11,7.809348970787642e-05,-2.172606560928071e-11,7.876007997864657e-05,-2.855522375920595e-11,7.610224694703888e-05,-3.562208491194123e-11,7.031895296423945e-05,-4.228487678839082e-11,7.428194716075228e-05,-4.824032038198181e-11,7.968861267127671e-05,-1.193087775160534e-12
9.559038343100522e-05,-2.298502351931084e-12,9.364618956727879e-05,-1.652785135738635e-12,8.585099645512918e-05,-4.681773128285753e-13,7.972186735813908e-05,-6.078172084196769e-14,7.48040007797008e-05,1.917351787800651e-13,6.77557959384801e-05,1.194991885768717e-13,6.317115688626035e-05,-2.055674357864945e-13,6.695278143595238e-05,-5.210698548117625e-13,6.829277060109451e-05,-1.302747559932273e-12,6.948196059184624e-05,-2.564555606444365e-12,7.223181543882575e-05,-4.367816436650451e-12,7.697966392267145e-05,-6.884457570886372e-12,8.116502761712964e-05,-1.047815851818369e-11,8.580246495400156e-05,-1.527493379167098e-11,8.809348970787642e-05,-2.137671206925612e-11,8.876007997864657e-05,-2.83429269016059e-11,8.610224694703888e-05,-3.554176663306244e-11,8.031895296423945e-05,-4.231675756783157e-11,8.428194716075228e-05,-4.835363653351882e-11,8.968861267127671e-05,-1.035552257440053e-12
0.0001055903834310052,-2.198113887154741e-12,0.0001036461895672788,-1.525012734569601e-12,9.585099645512918e-05,-2.706886003760612e-13,8.972186735813908e-05,1.812037518433808e-13,8.48040007797008e-05,4.888417814275098e-13,7.77557959384801e-05,4.772186209953053e-13,7.317115688626035e-05,2.193548342274129e-13,7.695278143595238e-05,-2.583715189462126e-14,7.829277060109451e-05,-7.501030804432682e-13,7.948196059184624e-05,-1.970326158069534e-12,8.223181543882575e-05,-3.753829852606342e-12,8.697966392267145e-05,-6.279711433385777e-12,9.116502761712964e-05,-9.919307029272597e-12,9.580246495400156e-05,-1.48016074083698e-11,9.809348970787642e-05,-2.102514792105476e-11,9.876007997864657e-05,-2.813034805796689e-11,9.610224694703888e-05,-3.546566784105859e-11,9.031895296423945e-05,-4.23531695032279e-11,9.428194716075228e-05,-4.847096945787121e-11,9.968861267127671e-05,-8.758748477110299e-13
0.0001155903834310052,-2.096703667716673e-12,0.0001136461895672788,-1.39568342347702e-12,0.0001058509964551292,-7.061187915487525e-14,9.972186735813908e-05,4.277478140591259e-13,9.48040007797008e-05,7.924833392181019e-13,8.77557959384801e-05,8.432007273095369e-13,8.317115688626035e-05,6.520493958669562e-13,8.695278143595238e-05,4.765023994578529e-13,8.829277060109451e-05,-1.908896207590399e-13,8.948196059184624e-05,-1.368962477812041e-12,9.223181543882575e-05,-3.13284663413736e-12,9.697966392267145e-05,-5.668939402021111e-12,0.0001011650276171296,-9.355746442251621e-12,0.0001058024649540016,-1.432510883375591e-11,0.0001080934897078764,-2.067195553186702e-11,0.0001087600799786466,-2.791774825529776e-11,0.0001061022469470389,-3.539389199968375e-11,0.0001003189529642394,-4.239393919578526e-11,0.0001042819471607523,-4.859199316705737e-11,0.0001096886126712767,-7.141008568582343e-13
0.0001255903834310052,-1.994296557093094e-12,0.0001236461895672788,-1.264831940429692e-12,0.0001158509964551292,1.320465281619842e-13,0.0001097218673581391,6.794541196490885e-13,0.0001048040007797008,1.102590362167047e-12,9.77557959384801e-05,1.21735193091662e-12,9.317115688626035e-05,1.095186836819776e-12,9.695278143595238e-05,9.918957079841013e-13,9.82927706010945e-05,3.747312127538782e-13,9.948196059184624e-05,-7.612731341567656e-13,0.0001022318154388257,-2.505855577344734e-12,0.0001069796639226714,-5.053268395625401e-12,0.0001111650276171296,-8.788604317010011e-12,0.0001158024649540016,-1.384636533090298e-11,0.0001180934897078764,-2.031771621394787e-11,0.0001187600799786466,-2.770550333679591e-11,0.0001161022469470389,-3.532634830765052e-11,0.0001103189529642394,-4.243884663596778e-11,0.0001142819471607523,-4.871634493580431e-11,0.0001196886126712767,-5.50272553289317e-13
0.0001355903834310052,-1.890912075278647e-12,0.0001336461895672788,-1.132489258305415e-12,0.0001258509964551292,3.381657732221858e-13,0.0001197218673581391,9.362640163857538e-13,0.0001148040007797008,1.419214826260857e-12,0.0001077557959384801,1.599728964624831e-12,0.0001031711568862603,1.548660815658407e-12,0.0001069527814359524,1.521560634395892e-12,0.0001082927706010945,9.536118662597759e-13,0.0001094819605918462,-1.480817031096689e-13,0.0001122318154388257,-1.873871376571538e-12,0.0001169796639226714,-4.433860717585277e-12,0.0001211650276171296,-8.219044520816643e-12,0.0001258024649540016,-1.336632604696741e-11,0.0001280934897078764,-1.996300818474186e-11,0.0001287600799786466,-2.749535782573051e-11,0.0001261022469470389,-3.526291296358854e-11,0.0001203189529642394,-4.248762623528983e-11,0.0001242819471607523,-4.884362644425238e-11,0.0001296886126712767,-3.844303384248416e-13
0.0001455903834310052,-1.786559225036643e-12,0.0001436461895672788,-9.986789168079055e-13,0.0001358509964551292,5.482979898107824e-13,0.0001297218673581391,1.198218114272771e-12,0.0001248040007797008,1.742397268669474e-12,0.0001177557959384801,1.990362719886912e-12,0.0001131711568862603,2.012488945856128e-12,0.0001169527814359524,2.064979816954819e-12,0.0001182927706010945,1.549030351414313e-12,0.0001194819605918462,4.707386280037102e-13,0.0001222318154388257,-1.237939376020462e-12,0.0001269796639226714,-3.811913664878695e-12,0.0001311650276171296,-7.648262229702664e-12,0.0001358024649540016,-1.288595574044206e-11,0.0001380934897078764,-1.960840180539491e-11,0.0001387600799786466,-2.728886723997817e-11,0.0001361022469470389,-3.520343217027035e-11,0.0001303189529642395,-4.253996787184286e-11,0.0001342819471607523,-4.897340545672716e-11,0.0001396886126712767,-2.166117954680074e-13
