/I_135/OUTA X,/I_135/OUTA Y,/I_270/OUTA X,/I_270/OUTA Y,/I_405/OUTA X,/I_405/OUTA Y,/I_540/OUTA X,/I_540/OUTA Y,/I_675/OUTA X,/I_675/OUTA Y,/I_1350/OUTA X,/I_1350/OUTA Y,/I_1215/OUTA X,/I_1215/OUTA Y,/I_1080/OUTA X,/I_1080/OUTA Y,/I_945/OUTA X,/I_945/OUTA Y,/I_810/OUTA X,/I_810/OUTA Y,/I_135/IN X,/I_135/IN Y
0,-2.247739276185141e-12,0,-7.06655701610095e-12,0,-1.317697225817789e-11,0,-1.937732419741166e-11,0,-2.529192812474395e-11,0,-4.872444800728024e-11,0,-4.473250480661152e-11,0,-4.052877311859454e-11,0,-3.605951895958637e-11,0,-3.084726527367626e-11,0,-2e-10
1e-06,-2.247764603272924e-12,1e-06,-7.066834721724113e-12,1e-06,-1.317752798313017e-11,1e-06,-1.937811380630266e-11,1e-06,-2.529290073551861e-11,1e-06,-4.872581116629538e-11,1e-06,-4.473383450366919e-11,1e-06,-4.053005622249971e-11,1e-06,-3.606073818369045e-11,1e-06,-3.08483779915124e-11,1e-06,-1.996e-10
2.890367486090477e-06,-2.248314195555478e-12,2.890367486090477e-06,-7.068908801055582e-12,2.890367486090477e-06,-1.318128010714326e-11,2.890367486090477e-06,-1.938331754677647e-11,2.890367486090477e-06,-2.529928428148907e-11,2.890367486090477e-06,-4.873510429489713e-11,2.890367486090477e-06,-4.474281635013166e-11,2.890367486090477e-06,-4.053864287580712e-11,2.890367486090477e-06,-3.606881976540803e-11,2.890367486090477e-06,-3.08557057567251e-11,2.890367486090477e-06,-1.988438530055638e-10
4.763282605352113e-06,-2.249222500710136e-12,4.763282605352113e-06,-7.071857334298754e-12,4.763282605352113e-06,-1.318648273846868e-11,4.763282605352113e-06,-1.939050825480575e-11,4.763282605352113e-06,-2.530813165359659e-11,4.763282605352113e-06,-4.874839953580684e-11,4.763282605352113e-06,-4.475558316135953e-11,4.763282605352113e-06,-4.055076497609744e-11,4.763282605352113e-06,-3.608014876945811e-11,4.763282605352113e-06,-3.086591559938699e-11,4.763282605352113e-06,-1.980946869578592e-10
8.196775609434306e-06,-2.251482052406694e-12,8.196775609434306e-06,-7.07876819617614e-12,8.196775609434306e-06,-1.319862276860995e-11,8.196775609434306e-06,-1.940741190629656e-11,8.196775609434306e-06,-2.532915792427739e-11,8.196775609434306e-06,-4.87818670522157e-11,8.196775609434306e-06,-4.478737968089538e-11,8.196775609434306e-06,-4.058061627892326e-11,8.196775609434306e-06,-3.610771601695905e-11,8.196775609434306e-06,-3.089046852032794e-11,8.196775609434306e-06,-1.967212897562263e-10
1.506376161759869e-05,-2.256592833155246e-12,1.506376161759869e-05,-7.094244925755555e-12,1.506376161759869e-05,-1.32259887788608e-11,1.506376161759869e-05,-1.944595191081665e-11,1.506376161759869e-05,-2.537771506166612e-11,1.506376161759869e-05,-4.886415006093068e-11,1.506376161759869e-05,-4.486463742698532e-11,1.506376161759869e-05,-4.065226238768375e-11,1.506376161759869e-05,-3.617304211779318e-11,1.506376161759869e-05,-3.094791246245665e-11,1.506376161759869e-05,-1.939744953529605e-10
2.506376161759869e-05,-2.264362715334999e-12,2.506376161759869e-05,-7.117815432230237e-12,2.506376161759869e-05,-1.326783051197663e-11,2.506376161759869e-05,-1.950519141862436e-11,2.506376161759869e-05,-2.545279496957048e-11,2.506376161759869e-05,-4.899570568353177e-11,2.506376161759869e-05,-4.498729938539078e-11,2.506376161759869e-05,-4.07652305888406e-11,2.506376161759869e-05,-3.627534642043556e-11,2.506376161759869e-05,-3.103729099840644e-11,2.506376161759869e-05,-1.899744953529605e-10
3.506376161759869e-05,-2.272397077591081e-12,3.506376161759869e-05,-7.142196786260035e-12,3.506376161759869e-05,-1.331111521675439e-11,3.506376161759869e-05,-1.956649215747826e-11,3.506376161759869e-05,-2.55305297933036e-11,3.506376161759869e-05,-4.913284568845613e-11,3.506376161759869e-05,-4.511492940946645e-11,3.506376161759869e-05,-4.088258116446937e-11,3.506376161759869e-05,-3.638147118517652e-11,3.506376161759869e-05,-3.112990590611084e-11,3.506376161759869e-05,-1.859744953529605e-10
4.506376161759869e-05,-2.280727378521809e-12,4.506376161759869e-05,-7.167461426547758e-12,4.506376161759869e-05,-1.335593778240353e-11,4.506376161759869e-05,-1.962992825613747e-11,4.506376161759869e-05,-2.561092190736743e-11,4.506376161759869e-05,-4.927438644475139e-11,4.506376161759869e-05,-4.524668502789431e-11,4.506376161759869e-05,-4.100376428282333e-11,4.506376161759869e-05,-3.649110725111481e-11,4.506376161759869e-05,-3.122563247591084e-11,4.506376161759869e-05,-1.819744953529605e-10
5.506376161759869e-05,-2.289383603620342e-12,5.506376161759869e-05,-7.193699946067688e-12,5.506376161759869e-05,-1.340246829800123e-11,5.506376161759869e-05,-1.969575660588899e-11,5.506376161759869e-05,-2.56943147460368e-11,5.506376161759869e-05,-4.942091878101546e-11,5.506376161759869e-05,-4.538314245466333e-11,5.506376161759869e-05,-4.112932303260832e-11,5.506376161759869e-05,-3.66047477777971e-11,5.506376161759869e-05,-3.132489441444631e-11,5.506376161759869e-05,-1.779744953529605e-10
6.50637616175987e-05,-2.298388616024124e-12,6.50637616175987e-05,-7.220982333477217e-12,6.50637616175987e-05,-1.345083585729146e-11,6.50637616175987e-05,-1.976417014847008e-11,6.50637616175987e-05,-2.578096765442758e-11,6.50637616175987e-05,-4.957303719129302e-11,6.50637616175987e-05,-4.552483150980201e-11,6.50637616175987e-05,-4.125972115356675e-11,6.50637616175987e-05,-3.672278997376281e-11,6.50637616175987e-05,-3.14280193171562e-11,6.50637616175987e-05,-1.739744953529605e-10
7.50637616175987e-05,-2.30776482869035e-12,7.50637616175987e-05,-7.249375183645394e-12,7.50637616175987e-05,-1.350115772284663e-11,7.50637616175987e-05,-1.983533533061837e-11,7.50637616175987e-05,-2.587109381132708e-11,7.50637616175987e-05,-4.97311719765271e-11,7.50637616175987e-05,-4.567213902498778e-11,7.50637616175987e-05,-4.139530305386538e-11,7.50637616175987e-05,-3.684553653653235e-11,7.50637616175987e-05,-3.15352654458845e-11,7.50637616175987e-05,-1.699744953529605e-10
8.50637616175987e-05,-2.317536322542142e-12,8.50637616175987e-05,-7.278949492071289e-12,8.50637616175987e-05,-1.355355753819995e-11,8.50637616175987e-05,-1.990942495787445e-11,8.50637616175987e-05,-2.59649102619971e-11,8.50637616175987e-05,-4.989570522678992e-11,8.50637616175987e-05,-4.582541854179128e-11,8.50637616175987e-05,-4.153639290810774e-11,8.50637616175987e-05,-3.69732807192659e-11,8.50637616175987e-05,-3.164688968736364e-11,8.50637616175987e-05,-1.659744953529605e-10
9.506376161759869e-05,-2.327729342215441e-12,9.506376161759869e-05,-7.309782673772162e-12,9.506376161759869e-05,-1.3608170292579e-11,9.506376161759869e-05,-1.998662779980892e-11,9.506376161759869e-05,-2.606265389784154e-11,9.506376161759869e-05,-5.006703929802675e-11,9.506376161759869e-05,-4.598504666019792e-11,9.506376161759869e-05,-4.168333931151102e-11,9.506376161759869e-05,-3.710634015938362e-11,9.506376161759869e-05,-3.17631716463146e-11,9.506376161759869e-05,-1.619744953529605e-10
0.0001050637616175987,-2.338372566859883e-12,0.0001050637616175987,-7.341959333805924e-12,0.0001050637616175987,-1.366514363626756e-11,0.0001050637616175987,-2.006715056369754e-11,0.0001050637616175987,-2.616458441932186e-11,0.0001050637616175987,-5.024561578762233e-11,0.0001050637616175987,-4.61514370871844e-11,0.0001050637616175987,-4.183652527784533e-11,0.0001050637616175987,-3.724506371723944e-11,0.0001050637616175987,-3.188441816852555e-11,0.0001050637616175987,-1.579744953529605e-10
0.0001150637616175987,-2.349497392282894e-12,0.0001150637616175987,-7.375572017621218e-12,0.0001150637616175987,-1.372463902629573e-11,0.0001150637616175987,-2.015121928362028e-11,0.0001150637616175987,-2.627098586736316e-11,0.0001150637616175987,-5.043191921535642e-11,0.0001150637616175987,-4.632504340296503e-11,0.0001150637616175987,-4.199637041689723e-11,0.0001150637616175987,-3.738983331594503e-11,0.0001150637616175987,-3.201096499294221e-11,0.0001150637616175987,-1.539744953529605e-10
0.0001250637616175987,-2.361138253138339e-12,0.0001250637616175987,-7.410722121218369e-12,0.0001250637616175987,-1.378683325067058e-11,0.0001250637616175987,-2.023908136174916e-11,0.0001250637616175987,-2.638216905818932e-11,0.0001250637616175987,-5.06264799731717e-11,0.0001250637616175987,-4.650636199408693e-11,0.0001250637616175987,-4.216333385348939e-11,0.0001250637616175987,-3.754106680806824e-11,0.0001250637616175987,-3.214317945645603e-11,0.0001250637616175987,-1.499744953529605e-10
0.0001350637616175987,-2.373332997292503e-12,0.0001350637616175987,-7.447520970434085e-12,0.0001350637616175987,-1.385192028802232e-11,0.0001350637616175987,-2.033100814492152e-11,0.0001350637616175987,-2.649847477976938e-11,0.0001350637616175987,-5.082987906851604e-11,0.0001350637616175987,-4.669593666527765e-11,0.0001350637616175987,-4.233791863894323e-11,0.0001350637616175987,-3.769922210570447e-11,0.0001350637616175987,-3.228146420731826e-11,0.0001350637616175987,-1.459744953529605e-10
0.0001450637616175987,-2.386123321168839e-12,0.0001450637616175987,-7.486091076238791e-12,0.0001450637616175987,-1.392011347273014e-11,0.0001450637616175987,-2.042729793407777e-11,0.0001450637616175987,-2.662027755069048e-11,0.0001450637616175987,-5.104275426725762e-11,0.0001450637616175987,-4.689436445948888e-11,0.0001450637616175987,-4.252067718833555e-11,0.0001450637616175987,-3.786480216903168e-11,0.0001450637616175987,-3.242626162091995e-11,0.0001450637616175987,-1.419744953529605e-10
0.0001550637616175987,-2.399555275195713e-12,0.0001550637616175987,-7.526567588192266e-12,0.0001550637616175987,-1.399164799581475e-11,0.0001550637616175987,-2.052827945464576e-11,0.0001550637616175987,-2.674798995189552e-11,0.0001550637616175987,-5.126580731595987e-11,0.0001550637616175987,-4.710230244757025e-11,0.0001550637616175987,-4.271221758691895e-11,0.0001550637616175987,-3.803836076988249e-11,0.0001550637616175987,-3.257805889133587e-11,0.0001550637616175987,-1.379744953529605e-10
0.0001650637616175987,-2.413679851463103e-12,0.0001650637616175987,-7.569099980789503e-12,0.0001650637616175987,-1.406678380236641e-11,0.0001650637616175987,-2.063431587278367e-11,0.0001650637616175987,-2.688206763482305e-11,0.0001650637616175987,-5.149981228064292e-11,0.0001650637616175987,-4.732047556214868e-11,0.0001650637616175987,-4.291321086600425e-11,0.0001650637616175987,-3.822050914417933e-11,0.0001650637616175987,-3.273739391254565e-11,0.0001650637616175987,-1.339744953529605e-10
0.0001750637616175987,-2.428553669304494e-12,0.0001750637616175987,-7.613854017517613e-12,0.0001750637616175987,-1.414580896302303e-11,0.0001750637616175987,-2.074580946568394e-11,0.0001750637616175987,-2.702301514159845e-11,0.0001750637616175987,-5.174562520548667e-11,0.0001750637616175987,-4.754968567707924e-11,0.0001750637616175987,-4.312439944148648e-11,0.0001750637616175987,-3.841192371274247e-11,0.0001750637616175987,-3.290486210886441e-11,0.0001750637616175987,-1.299744953529605e-10
0.0001850637616175987,-2.444239778412476e-12,0.0001850637616175987,-7.661014047845036e-12,0.0001850637616175987,-1.422904361346338e-11,0.0001850637616175987,-2.086320707550676e-11,0.0001850637616175987,-2.717139269840583e-11,0.0001850637616175987,-5.200419535999809e-11,0.0001850637616175987,-4.779082218537152e-11,0.0001850637616175987,-4.334660694971085e-11,0.0001850637616175987,-3.861335508467354e-11,0.0001850637616175987,-3.308112440375917e-11,0.0001850637616175987,-1.259744953529605e-10
0.0001950637616175987,-2.460808603713657e-12,0.0001950637616175987,-7.71078570498948e-12,0.0001950637616175987,-1.431684457689992e-11,0.0001950637616175987,-2.098700650486917e-11,0.0001950637616175987,-2.732782417759678e-11,0.0001950637616175987,-5.22765783958044e-11,0.0001950637616175987,-4.804487437743381e-11,0.0001950637616175987,-4.358074976139063e-11,0.0001950637616175987,-3.882563860056855e-11,0.0001950637616175987,-3.326691655540359e-11,0.0001950637616175987,-1.219744953529605e-10
0.0002050637616175987,-2.478339062045964e-12,0.0002050637616175987,-7.763399088390315e-12,0.0002050637616175987,-1.440961081165468e-11,0.0002050637616175987,-2.111776404885507e-11,0.0002050637616175987,-2.749300646963382e-11,0.0002050637616175987,-5.256395180328619e-11,0.0002050637616175987,-4.831294598768115e-11,0.0002050637616175987,-4.382785051705804e-11,0.0002050637616175987,-3.904970673133995e-11,0.0002050637616175987,-3.346306014004169e-11,0.0002050637616175987,-1.179744953529605e-10
0.0002150637616175987,-2.496919888133158e-12,0.0002150637616175987,-7.819112535415434e-12,0.0002150637616175987,-1.450778986055639e-11,0.0002150637616175987,-2.125610340592452e-11,0.0002150637616175987,-2.76677205644311e-11,0.0002150637616175987,-5.286763315014885e-11,0.0002150637616175987,-4.859627236503801e-11,0.0002150637616175987,-4.408905410970042e-11,0.0002150637616175987,-3.928660372439674e-11,0.0002150637616175987,-3.36704755322701e-11,0.0002150637616175987,-1.139744953529605e-10
0.0002250637616175987,-2.516651216951133e-12,0.0002250637616175987,-7.878217113263601e-12,0.0002250637616175987,-1.461188552336628e-11,0.0002250637616175987,-2.140272627080042e-11,0.0002250637616175987,-2.7852844716369e-11,0.0002250637616175987,-5.318910170261737e-11,0.0002250637616175987,-4.889624083516608e-11,0.0002250637616175987,-4.436564664552774e-11,0.0002250637616175987,-3.953750298606533e-11,0.0002250637616175987,-3.389019731709115e-11,0.0002250637616175987,-1.099744953529605e-10
0.0002350637616175987,-2.537646482022853e-12,0.0002350637616175987,-7.941041996208371e-12,0.0002350637616175987,-1.472246703075055e-11,0.0002350637616175987,-2.155842499057899e-11,0.0002350637616175987,-2.804937016344275e-11,0.0002350637616175987,-5.353002418213242e-11,0.0002350637616175987,-4.921441496704377e-11,0.0002350637616175987,-4.465907804897001e-11,0.0002350637616175987,-3.980372781391572e-11,0.0002350637616175987,-3.412339268264914e-11,0.0002350637616175987,-1.059744953529605e-10
0.0002450637616175987,-2.56003476373207e-12,0.0002450637616175987,-8.007961122149781e-12,0.0002450637616175987,-1.484018039784141e-11,0.0002450637616175987,-2.17240982194438e-11,0.0002450637616175987,-2.825842055868659e-11,0.0002450637616175987,-5.38922865067137e-11,0.0002450637616175987,-4.95525644973674e-11,0.0002450637616175987,-4.49709899530866e-11,0.0002450637616175987,-4.008677699259856e-11,0.0002450637616175987,-3.43713841415639e-11,0.0002450637616175987,-1.019744953529605e-10
0.0002550637616175987,-2.583964041264602e-12,0.0002550637616175987,-8.079402501974451e-12,0.0002550637616175987,-1.496576435133574e-11,0.0002550637616175987,-2.190077289641992e-11,0.0002550637616175987,-2.848127924832379e-11,0.0002550637616175987,-5.427803819245645e-11,0.0002550637616175987,-4.991270721813235e-11,0.0002550637616175987,-4.530325478258748e-11,0.0002550637616175987,-4.038836069074743e-11,0.0002550637616175987,-3.463568141446984e-11,0.0002550637616175987,-9.797449535296052e-11
0.0002650637616175987,-2.609604037445239e-12,0.0002650637616175987,-8.155855893813391e-12,0.0002650637616175987,-1.510006322729575e-11,0.0002650637616175987,-2.208962196768312e-11,0.0002650637616175987,-2.871941128034882e-11,0.0002650637616175987,-5.468972891106647e-11,0.0002650637616175987,-5.029714330378028e-11,0.0002650637616175987,-4.565800762063213e-11,0.0002650637616175987,-4.071042959292327e-11,0.0002650637616175987,-3.491800721822145e-11,0.0002650637616175987,-9.397449535296052e-11
0.0002750637616175988,-2.637150164154814e-12,0.0002750637616175988,-8.237884020770018e-12,0.0002750637616175988,-1.524404602728484e-11,0.0002750637616175988,-2.229199053323259e-11,0.0002750637616175988,-2.897449569558556e-11,0.0002750637616175988,-5.513016012151972e-11,0.0002750637616175988,-5.070850416069863e-11,0.0002750637616175988,-4.603769192082125e-11,0.0002750637616175988,-4.105521702959193e-11,0.0002750637616175988,-3.522033483906034e-11,0.0002750637616175988,-8.997449535296049e-11
0.0002850637616175988,-2.66682889080812e-12,0.0002850637616175988,-8.326137618054256e-12,0.0002850637616175988,-1.53988319270063e-11,0.0002850637616175988,-2.25094308619292e-11,0.0002850637616175988,-2.924846882006374e-11,0.0002850637616175988,-5.560255467435282e-11,0.0002850637616175988,-5.114981822732442e-11,0.0002850637616175988,-4.644512102095468e-11,0.0002850637616175988,-4.142529560416099e-11,0.0002850637616175988,-3.554493857183146e-11,0.0002850637616175988,-8.597449535296049e-11
0.0002950637616175988,-2.698904288665225e-12,0.0002950637616175988,-8.421373659050204e-12,0.0002950637616175988,-1.556572111636399e-11,0.0002950637616175988,-2.274374471608075e-11,0.0002950637616175988,-2.954357661503184e-11,0.0002950637616175988,-5.611064135190989e-11,0.0002950637616175988,-5.162459081212996e-11,0.0002950637616175988,-4.688355270433047e-11,0.0002950637616175988,-4.182364576382417e-11,0.0002950637616175988,-3.58944547509792e-11,0.0002950637616175988,-8.197449535296047e-11
0.0003050637616175989,-2.733686136400026e-12,0.0003050637616175989,-8.524477879998295e-12,0.0003050637616175989,-1.574623283965605e-11,0.0003050637616175989,-2.299703547495648e-11,0.0003050637616175989,-2.986243905599236e-11,0.0003050637616175989,-5.665875832576808e-11,0.0003050637616175989,-5.213690186729053e-11,0.0003050637616175989,-4.735678058674183e-11,0.0003050637616175989,-4.225373992352561e-11,0.0003050637616175989,-3.627195670984794e-11,0.0003050637616175989,-7.797449535296046e-11
0.0003150637616175989,-2.771540184934017e-12,0.0003150637616175989,-8.636493202874868e-12,0.0003150637616175989,-1.594215329553229e-11,0.0003150637616175989,-2.327177366326654e-11,0.0003150637616175989,-3.020813095399662e-11,0.0003150637616175989,-5.725198232610579e-11,0.0003150637616175989,-5.269152817529925e-11,0.0003150637616175989,-4.786924843492341e-11,0.0003150637616175989,-4.271964781061094e-11,0.0003150637616175989,-3.668104876220725e-11,0.0003150637616175989,-7.397449535296044e-11
0.0003250637616175989,-2.812901289366554e-12,0.0003250637616175989,-8.758655953286534e-12,0.0003250637616175989,-1.615559654585774e-11,0.0003250637616175989,-2.357088015448432e-11,0.0003250637616175989,-3.05842844489534e-11,0.0003250637616175989,-5.789629169430202e-11,0.0003250637616175989,-5.329409770599551e-11,0.0003250637616175989,-4.842619470200468e-11,0.0003250637616175989,-4.322616977139768e-11,0.0003250637616175989,-3.712598525165295e-11,0.0003250637616175989,-6.997449535296043e-11
0.0003350637616175989,-2.858290359786172e-12,0.0003350637616175989,-8.892442412776387e-12,0.0003350637616175989,-1.638908262880012e-11,0.0003350637616175989,-2.389783270849099e-11,0.0003350637616175989,-3.099522007414816e-11,0.0003350637616175989,-5.859877390226003e-11,0.0003350637616175989,-5.395128621998917e-11,0.0003350637616175989,-4.903383677337147e-11,0.0003350637616175989,-4.377900685573313e-11,0.0003350637616175989,-3.761182260831466e-11,0.0003350637616175989,-6.597449535296042e-11
0.000345063761617599,-2.908336457694731e-12,0.000345063761617599,-9.039629221132619e-12,0.000345063761617599,-1.664563866189409e-11,0.000345063761617599,-2.425680362238329e-11,0.000345063761617599,-3.144611585047188e-11,0.000345063761617599,-5.936789187522772e-11,0.000345063761617599,-5.467106979711128e-11,0.000345063761617599,-4.969960784707204e-11,0.000345063761617599,-4.438497970238432e-11,0.000345063761617599,-3.814461526818612e-11,0.000345063761617599,-6.197449535296043e-11
0.000355063761617599,-2.96380590350013e-12,0.000355063761617599,-9.202372536907793e-12,0.000355063761617599,-1.692893098297001e-11,0.000355063761617599,-2.465283929754508e-11,0.000355063761617599,-3.194322749992745e-11,0.000355063761617599,-6.021382878088404e-11,0.000355063761617599,-5.546305207876858e-11,0.000355063761617599,-5.043246420160973e-11,0.000355063761617599,-4.505231279431289e-11,0.000355063761617599,-3.873167044512882e-11,0.000355063761617599,-5.797449535296042e-11
