/I_135/OUTA X,/I_135/OUTA Y,/I_270/OUTA X,/I_270/OUTA Y,/I_405/OUTA X,/I_405/OUTA Y,/I_540/OUTA X,/I_540/OUTA Y,/I_675/OUTA X,/I_675/OUTA Y,/I_810/OUTA X,/I_810/OUTA Y,/I_945/OUTA X,/I_945/OUTA Y,/I_1080/OUTA X,/I_1080/OUTA Y,/I_1215/OUTA X,/I_1215/OUTA Y,/I_1350/OUTA X,/I_1350/OUTA Y,/I_135/IN X,/I_135/IN Y
0,5.268393352225181e-11,0,4.107048862171583e-11,0,4.610399846851503e-11,0,5.352740971578502e-11,0,6.276391022528807e-11,0,7.144639562800971e-11,0,7.95650144659361e-11,0,8.717394046536346e-11,0,9.429010085992179e-11,0,1.00973105252564e-10,0,-2e-10
1e-06,5.26837044384401e-11,1e-06,4.107031738124049e-11,1e-06,4.610382010810338e-11,1e-06,5.352721972400531e-11,1e-06,6.276369570966896e-11,1e-06,7.144616931191028e-11,1e-06,7.956478041592624e-11,1e-06,8.717369510977986e-11,1e-06,9.428985252068556e-11,1e-06,1.009728585120583e-10,1e-06,-1.996e-10
3e-06,5.268458092136674e-11,3e-06,4.107098119181594e-11,3e-06,4.610451817406802e-11,3e-06,5.352797161252093e-11,3e-06,6.276454363139935e-11,3e-06,7.144707005759901e-11,3e-06,7.956571806758827e-11,3e-06,8.717468084120247e-11,3e-06,9.429085888264839e-11,3e-06,1.009738669113333e-10,3e-06,-1.988e-10
5.110376074989633e-06,5.268720334918634e-11,5.110376074989633e-06,4.107300608184948e-11,5.110376074989633e-06,4.610667295953286e-11,5.110376074989633e-06,5.353031883400683e-11,5.110376074989633e-06,6.276718883464125e-11,5.110376074989633e-06,7.144990283400367e-11,5.110376074989633e-06,7.956868960946231e-11,5.110376074989633e-06,8.717780723625388e-11,5.110376074989633e-06,9.429406758411948e-11,5.110376074989633e-06,1.009771076013914e-10,5.110376074989633e-06,-1.979558495700041e-10
8.540426396422359e-06,5.269581111856675e-11,8.540426396422359e-06,4.10797882572552e-11,8.540426396422359e-06,4.611398979392826e-11,8.540426396422359e-06,5.353840748539627e-11,8.540426396422359e-06,6.277630758222374e-11,8.540426396422359e-06,7.145977509041008e-11,8.540426396422359e-06,7.957915870332768e-11,8.540426396422359e-06,8.718885205544847e-11,8.540426396422359e-06,9.430550077165262e-11,8.540426396422359e-06,1.009887886213365e-10,8.540426396422359e-06,-1.965838294414311e-10
1.540052703928781e-05,5.272109892132557e-11,1.540052703928781e-05,4.109996830403109e-11,1.540052703928781e-05,4.613600203798622e-11,1.540052703928781e-05,5.356305642233777e-11,1.540052703928781e-05,6.280414546201139e-11,1.540052703928781e-05,7.149021559015382e-11,1.540052703928781e-05,7.961176637274283e-11,1.540052703928781e-05,8.722337513008302e-11,1.540052703928781e-05,9.434153098940698e-11,1.540052703928781e-05,1.010259941244618e-10,1.540052703928781e-05,-1.938397891842849e-10
2.540052703928781e-05,5.276393172513542e-11,2.540052703928781e-05,4.113428090120837e-11,2.540052703928781e-05,4.617363724134293e-11,2.540052703928781e-05,5.360547992182379e-11,2.540052703928781e-05,6.285213060401555e-11,2.540052703928781e-05,7.154295685103487e-11,2.540052703928781e-05,7.966855362867942e-11,2.540052703928781e-05,8.728362143900302e-11,2.540052703928781e-05,9.440467120257207e-11,2.540052703928781e-05,1.010915446356965e-10,2.540052703928781e-05,-1.898397891842849e-10
3.540052703928781e-05,5.280893100630591e-11,3.540052703928781e-05,4.117033205966183e-11,3.540052703928781e-05,4.621323538477639e-11,3.540052703928781e-05,5.365019084966549e-11,3.540052703928781e-05,6.290272835916206e-11,3.540052703928781e-05,7.159863710424701e-11,3.540052703928781e-05,7.972857723617859e-11,3.540052703928781e-05,8.734733251720434e-11,3.540052703928781e-05,9.447150804861692e-11,3.540052703928781e-05,1.011610198192211e-10,3.540052703928781e-05,-1.858397891842849e-10
4.540052703928781e-05,5.285522011570048e-11,4.540052703928781e-05,4.120740457457217e-11,4.540052703928781e-05,4.625394970829579e-11,4.540052703928781e-05,5.369615311484413e-11,4.540052703928781e-05,6.295473942027725e-11,4.540052703928781e-05,7.165586126037399e-11,4.540052703928781e-05,7.979025286479345e-11,4.540052703928781e-05,8.741279044835638e-11,4.540052703928781e-05,9.454016631571037e-11,4.540052703928781e-05,1.01232374306779e-10,4.540052703928781e-05,-1.818397891842849e-10
5.540052703928781e-05,5.290301069500289e-11,5.540052703928781e-05,4.124567785357258e-11,5.540052703928781e-05,4.62959710861469e-11,5.540052703928781e-05,5.374357473759382e-11,5.540052703928781e-05,6.300839436080697e-11,5.540052703928781e-05,7.171487753383817e-11,5.540052703928781e-05,7.985384258323566e-11,5.540052703928781e-05,8.748027025908078e-11,5.540052703928781e-05,9.461092931439011e-11,5.540052703928781e-05,1.013058961506382e-10,5.540052703928781e-05,-1.778397891842849e-10
6.540052703928781e-05,5.295256004518802e-11,6.540052703928781e-05,4.128536235285138e-11,6.540052703928781e-05,4.633953590418178e-11,6.540052703928781e-05,5.379272997987722e-11,6.540052703928781e-05,6.306400529156052e-11,6.540052703928781e-05,7.177603653068757e-11,6.540052703928781e-05,7.991973202313326e-11,6.540052703928781e-05,8.755018438983655e-11,6.540052703928781e-05,9.468423656662459e-11,6.540052703928781e-05,1.013820515155927e-10,6.540052703928781e-05,-1.738397891842849e-10
7.540052703928781e-05,5.300403533209906e-11,7.540052703928781e-05,4.132659243923024e-11,7.540052703928781e-05,4.638479484118406e-11,7.540052703928781e-05,5.384379300226943e-11,7.540052703928781e-05,6.312177042497085e-11,7.540052703928781e-05,7.183955977800322e-11,7.540052703928781e-05,7.998816358702512e-11,7.540052703928781e-05,8.76227914829944e-11,7.540052703928781e-05,9.47603626131032e-11,7.540052703928781e-05,1.014611301552027e-10,7.540052703928781e-05,-1.698397891842849e-10
8.540052703928781e-05,5.305756479160086e-11,8.540052703928781e-05,4.136947079312012e-11,8.540052703928781e-05,4.643186123343771e-11,8.540052703928781e-05,5.389689235835866e-11,8.540052703928781e-05,6.318183514297387e-11,8.540052703928781e-05,7.190560748346442e-11,8.540052703928781e-05,8.005931021853821e-11,8.540052703928781e-05,8.769827493499796e-11,8.540052703928781e-05,9.483950003249057e-11,8.540052703928781e-05,1.015433326335822e-10,8.540052703928781e-05,-1.658397891842849e-10
9.540052703928781e-05,5.311327625177141e-11,9.540052703928781e-05,4.14141000340846e-11,9.540052703928781e-05,4.648084743181639e-11,9.540052703928781e-05,5.395215432774746e-11,9.540052703928781e-05,6.324434176992164e-11,9.540052703928781e-05,7.197433549399985e-11,9.540052703928781e-05,8.013333912649606e-11,9.540052703928781e-05,8.777681156191034e-11,9.540052703928781e-05,9.492183355883437e-11,9.540052703928781e-05,1.016288501557135e-10,9.540052703928781e-05,-1.618397891842849e-10
0.0001054005270392878,5.317130963895298e-11,0.0001054005270392878,4.146059263584356e-11,0.0001054005270392878,4.653187648514045e-11,0.0001054005270392878,5.400971712793544e-11,0.0001054005270392878,6.330944603206715e-11,0.0001054005270392878,7.204591427456002e-11,0.0001054005270392878,8.021043314409854e-11,0.0001054005270392878,8.785859466575569e-11,0.0001054005270392878,9.500756509074246e-11,0.0001054005270392878,1.017178916324528e-10,0.0001054005270392878,-1.578397891842849e-10
0.0001154005270392878,5.323181921990784e-11,0.0001154005270392878,4.150907262389929e-11,0.0001154005270392878,4.658508415539407e-11,0.0001154005270392878,5.406973335808211e-11,0.0001154005270392878,6.33773198840933e-11,0.0001154005270392878,7.212053213766858e-11,0.0001154005270392878,8.029079433362939e-11,0.0001154005270392878,8.794383790846416e-11,0.0001154005270392878,9.509691786812224e-11,0.0001154005270392878,1.018106881658342e-10,0.0001154005270392878,-1.538397891842849e-10
0.0001254005270392878,5.329497425439758e-11,0.0001254005270392878,4.155967608582085e-11,0.0001254005270392878,4.664061944291877e-11,0.0001254005270392878,5.413237053737577e-11,0.0001254005270392878,6.344815209074674e-11,0.0001254005270392878,7.219839582726628e-11,0.0001254005270392878,8.037464455885201e-11,0.0001254005270392878,8.803277588733147e-11,0.0001254005270392878,9.519013702500198e-11,0.0001254005270392878,1.019074935572631e-10,0.0001254005270392878,-1.498397891842849e-10
0.0001354005270392878,5.336096024171122e-11,0.0001354005270392878,4.161255218305148e-11,0.0001354005270392878,4.669864565807553e-11,0.0001354005270392878,5.419781226256355e-11,0.0001354005270392878,6.352214950753171e-11,0.0001354005270392878,7.227973187776869e-11,0.0001354005270392878,8.046222689759569e-11,0.0001354005270392878,8.812566560390643e-11,0.0001354005270392878,9.528749108276383e-11,0.0001354005270392878,1.020085858019668e-10,0.0001354005270392878,-1.458397891842849e-10
0.0001454005270392878,5.342998079209184e-11,0.0001454005270392878,4.166786466505932e-11,0.0001454005270392878,4.675934206409832e-11,0.0001454005270392878,5.426626003542501e-11,0.0001454005270392878,6.359953912722109e-11,0.0001454005270392878,7.236478883561526e-11,0.0001454005270392878,8.055380800632751e-11,0.0001454005270392878,8.822278894995318e-11,0.0001454005270392878,9.538927452900847e-11,0.0001454005270392878,1.021142697369783e-10,0.0001454005270392878,-1.418397891842849e-10
0.0001554005270392878,5.350225992391643e-11,0.0001554005270392878,4.172579372355876e-11,0.0001554005270392878,4.682290590160863e-11,0.0001554005270392878,5.43379355312455e-11,0.0001554005270392878,6.368057062603747e-11,0.0001554005270392878,7.245384003712047e-11,0.0001554005270392878,8.064968108891676e-11,0.0001554005270392878,8.832445583698646e-11,0.0001554005270392878,9.549581107614376e-11,0.0001554005270392878,1.022248804038374e-10,0.0001554005270392878,-1.378397891842849e-10
0.0001654005270392878,5.357804473364962e-11,0.0001654005270392878,4.178653814737546e-11,0.0001654005270392878,4.688955474279802e-11,0.0001654005270392878,5.441308323719138e-11,0.0001654005270392878,6.376551932657433e-11,0.0001654005270392878,7.254718684136034e-11,0.0001654005270392878,8.075016935447496e-11,0.0001654005270392878,8.843100784043902e-11,0.0001654005270392878,9.560745745801142e-11,0.0001654005270392878,1.023407869681031e-10,0.0001654005270392878,-1.338397891842849e-10
0.0001754005270392878,5.365760848522426e-11,0.0001754005270392878,4.18503178158202e-11,0.0001754005270392878,4.695952921552578e-11,0.0001754005270392878,5.449197350505653e-11,0.0001754005270392878,6.385468962260176e-11,0.0001754005270392878,7.264516236697745e-11,0.0001754005270392878,8.085563001188371e-11,0.0001754005270392878,8.854282240891244e-11,0.0001754005270392878,9.572460781300463e-11,0.0001754005270392878,1.024623972426022e-10,0.0001754005270392878,-1.298397891842849e-10
0.0001854005270392878,5.374125420466398e-11,0.0001854005270392878,4.191737660219871e-11,0.0001854005270392878,4.703309617249272e-11,0.0001854005270392878,5.457490610046274e-11,0.0001854005270392878,6.394841896192128e-11,0.0001854005270392878,7.274813583408503e-11,0.0001854005270392878,8.096645891006625e-11,0.0001854005270392878,8.866031775204692e-11,0.0001854005270392878,9.584769877310811e-11,0.0001854005270392878,1.025901629382e-10,0.0001854005270392878,-1.258397891842849e-10
0.0001954005270392878,5.382931888380187e-11,0.0001954005270392878,4.198798576834912e-11,0.0001954005270392878,4.711055239787053e-11,0.0001954005270392878,5.466221435365199e-11,0.0001954005270392878,6.404708250175148e-11,0.0001954005270392878,7.285651763966191e-11,0.0001954005270392878,8.108309595960719e-11,0.0001954005270392878,8.87839585505953e-11,0.0001954005270392878,9.597721540673424e-11,0.0001954005270392878,1.027245857927055e-10,0.0001954005270392878,-1.218397891842849e-10
0.0002054005270392878,5.392217842045453e-11,0.0002054005270392878,4.206244795654944e-11,0.0002054005270392878,4.719222896417459e-11,0.0002054005270392878,5.47542700358287e-11,0.0002054005270392878,6.415109857612727e-11,0.0002054005270392878,7.297076531522494e-11,0.0002054005270392878,8.120603149637856e-11,0.0002054005270392878,8.891426265657283e-11,0.0002054005270392878,9.611369819070416e-11,0.0002054005270392878,1.028662247606459e-10,0.0002054005270392878,-1.178397891842849e-10
0.0002154005270392878,5.402025344713367e-11,0.0002154005270392878,4.214110190088688e-11,0.0002154005270392878,4.727849637285397e-11,0.0002154005270392878,5.485148911317361e-11,0.0002154005270392878,6.426093514542042e-11,0.0002154005270392878,7.309139055388047e-11,0.0002154005270392878,8.133581378437242e-11,0.0002154005270392878,8.905180899039679e-11,0.0002154005270392878,9.625775122518362e-11,0.0002154005270392878,1.030157044821803e-10,0.0002154005270392878,-1.138397891842849e-10
0.0002254005270392878,5.412401624384089e-11,0.0002254005270392878,4.222432801518711e-11,0.0002254005270392878,4.73697706518699e-11,0.0002254005270392878,5.495433856837073e-11,0.0002254005270392878,6.437711744126194e-11,0.0002254005270392878,7.321896753496418e-11,0.0002254005270392878,8.147305790079863e-11,0.0002254005270392878,8.919724689162738e-11,0.0002254005270392878,9.641005195907705e-11,0.0002254005270392878,1.031737253062779e-10,0.0002254005270392878,-1.098397891842849e-10
0.0002354005270392878,5.423399897331898e-11,0.0002354005270392878,4.231255505458432e-11,0.0002354005270392878,4.746652062114731e-11,0.0002354005270392878,5.506334452667081e-11,0.0002354005270392878,6.45002370680964e-11,0.0002354005270392878,7.335414283390307e-11,0.0002354005270392878,8.161845631110577e-11,0.0002354005270392878,8.935130724307782e-11,0.0002354005270392878,9.657136275594477e-11,0.0002354005270392878,1.033410752084462e-10,0.0002354005270392878,-1.058397891842849e-10
0.0002454005270392878,5.43508037492826e-11,0.0002454005270392878,4.240626825791655e-11,0.0002454005270392878,4.756927677175654e-11,0.0002454005270392878,5.517910218322342e-11,0.0002454005270392878,6.463096312125694e-11,0.0002454005270392878,7.34976475211546e-11,0.0002454005270392878,8.177279177352813e-11,0.0002454005270392878,8.951481604427913e-11,0.0002454005270392878,9.674254500099266e-11,0.0002454005270392878,1.035186443207599e-10,0.0002454005270392878,-1.018397891842849e-10
0.0002554005270392878,5.447511636727238e-11,0.0002554005270392878,4.250602043570465e-11,0.0002554005270392878,4.767864334732958e-11,0.0002554005270392878,5.530228929901164e-11,0.0002554005270392878,6.477005730674162e-11,0.0002554005270392878,7.365031360999839e-11,0.0002554005270392878,8.193695487677062e-11,0.0002554005270392878,8.968871285864006e-11,0.0002554005270392878,9.69245782711218e-11,0.0002554005270392878,1.037074446670406e-10,0.0002554005270392878,-9.783978918428488e-11
0.0002654005270392879,5.460771937503498e-11,0.0002654005270392879,4.261244259927755e-11,0.0002654005270392879,4.779530995719934e-11,0.0002654005270392879,5.543367921125172e-11,0.0002654005270392879,6.491838849051304e-11,0.0002654005270392879,7.381308990386095e-11,0.0002654005270392879,8.211196095872418e-11,0.0002654005270392879,8.987406859703616e-11,0.0002654005270392879,9.711857882851643e-11,0.0002654005270392879,1.039086292227127e-10,0.0002654005270392879,-9.383978918428486e-11
0.0002754005270392879,5.474950793932958e-11,0.0002754005270392879,4.27262568211941e-11,0.0002754005270392879,4.792006558163951e-11,0.0002754005270392879,5.557415646231563e-11,0.0002754005270392879,6.507695016323258e-11,0.0002754005270392879,7.39870609596098e-11,0.0002754005270392879,8.229897029110213e-11,0.0002754005270392879,9.007210670490964e-11,0.0002754005270392879,9.732582160308127e-11,0.0002754005270392879,1.041235144054605e-10,0.0002754005270392879,-8.983978918428484e-11
0.0002854005270392879,5.490151166517895e-11,0.0002854005270392879,4.284829389815637e-11,0.0002854005270392879,4.805381779337144e-11,0.0002854005270392879,5.572473823257626e-11,0.0002854005270392879,6.524688439371673e-11,0.0002854005270392879,7.417347308876511e-11,0.0002854005270392879,8.249931574271567e-11,0.0002854005270392879,9.028423220361452e-11,0.0002854005270392879,9.754777031025962e-11,0.0002854005270392879,1.043536112202593e-10,0.0002854005270392879,-8.583978918428485e-11
0.0002954005270392879,5.506492182173181e-11,0.0002954005270392879,4.297951543104107e-11,0.0002954005270392879,4.819761680297664e-11,0.0002954005270392879,5.588660117838169e-11,0.0002954005270392879,6.542951181956797e-11,0.0002954005270392879,7.437376692432828e-11,0.0002954005270392879,8.271453745064996e-11,0.0002954005270392879,9.051206808911649e-11,0.0002954005270392879,9.778611522070902e-11,0.0002954005270392879,1.046006640504134e-10,0.0002954005270392879,-8.183978918428483e-11
0.000305400527039288,5.5241124596247e-11,0.000305400527039288,4.312104081491612e-11,0.000305400527039288,4.835268485162827e-11,0.000305400527039288,5.606111422488277e-11,0.000305400527039288,6.562636826822079e-11,0.000305400527039288,7.458961717648514e-11,0.000305400527039288,8.294642512447763e-11,0.000305400527039288,9.075749972176028e-11,0.000305400527039288,9.804281920045935e-11,0.000305400527039288,1.04866697961329e-10,0.000305400527039288,-7.783978918428482e-11
0.000315400527039288,5.543174247895859e-11,0.000315400527039288,4.327418085010219e-11,0.000315400527039288,4.852045278803847e-11,0.000315400527039288,5.624987935003431e-11,0.000315400527039288,6.583925026648667e-11,0.000315400527039288,7.482298199313325e-11,0.000315400527039288,8.319707053149075e-11,0.000315400527039288,9.102272986504122e-11,0.000315400527039288,9.832017476064656e-11,0.000315400527039288,1.051540773029121e-10,0.000315400527039288,-7.38397891842848e-11
0.000325400527039288,5.563868649742724e-11,0.000325400527039288,4.344048019075233e-11,0.000325400527039288,4.870260624641821e-11,0.000325400527039288,5.645478303131159e-11,0.000325400527039288,6.607027241390727e-11,0.000325400527039288,7.507616514274112e-11,0.000325400527039288,8.346893356992935e-11,0.000325400527039288,9.131034792885457e-11,0.000325400527039288,9.862087578569202e-11,0.000325400527039288,1.054655793549542e-10,0.000325400527039288,-6.983978918428479e-11
0.000335400527039288,5.586422273509628e-11,0.000335400527039288,4.362177144886976e-11,0.000335400527039288,4.890114447630359e-11,0.000335400527039288,5.667806175661496e-11,0.000335400527039288,6.632194037624214e-11,0.000335400527039288,7.535189507121544e-11,0.000335400527039288,8.376492621306995e-11,0.000335400527039288,9.16234178861157e-11,0.000335400527039288,9.894810855117493e-11,0.000335400527039288,1.058044877227314e-10,0.000335400527039288,-6.583978918428478e-11
0.0003454005270392881,5.611105775689383e-11,0.0003454005270392881,4.38202447447125e-11,0.0003454005270392881,4.911845592362341e-11,0.0003454005270392881,5.692238612934758e-11,0.0003454005270392881,6.659724453057266e-11,0.0003454005270392881,7.565342623912289e-11,0.0003454005270392881,8.408852003476427e-11,0.0003454005270392881,9.196559081029857e-11,0.0003454005270392881,9.930566815528711e-11,0.0003454005270392881,1.061747117272521e-10,0.0003454005270392881,-6.183978918428477e-11
0.0003554005270392881,5.638244930256884e-11,0.0003554005270392881,4.403853791611995e-11,0.0003554005270392881,4.935741622690543e-11,0.0003554005270392881,5.719096982512208e-11,0.0003554005270392881,6.689978115941141e-11,0.0003554005270392881,7.598467016245171e-11,0.0003554005270392881,8.444388512824232e-11,0.0003554005270392881,9.234125015418587e-11,0.0003554005270392881,9.96981087120682e-11,0.0003554005270392881,1.065809403228954e-10,0.0003554005270392881,-5.783978918428476e-11
0.0003654005270392881,5.668235103562205e-11,0.0003654005270392881,4.42798546329163e-11,0.0003654005270392881,4.962151643900636e-11,0.0003654005270392881,5.748771204427939e-11,0.0003654005270392881,6.723391074368996e-11,0.0003654005270392881,7.635036638780023e-11,0.0003654005270392881,8.48360711937098e-11,0.0003654005270392881,9.275570096665319e-11,0.0003654005270392881,1.001309388052114e-10,0.0003654005270392881,1.070288422306506e-10,0.0003654005270392881,-5.383978918428477e-11
